
T4D68 000:341 SEGGER J-Link V4.96d Log File (0000ms, 0268ms total)
T4D68 000:341 DLL Compiled: Jan 29 2015 11:45:37 (0000ms, 0268ms total)
T4D68 000:341 Logging started @ 2018-07-14 03:59 (0000ms, 0268ms total)
T4D68 000:341 JLINK_SetWarnOutHandler(...) (0000ms, 0268ms total)
T4D68 000:341 JLINK_OpenEx(...)
Firmware: J-Link ARM V8 compiled Nov 28 2014 13:44:46
Hardware: V8.00
S/N: 17935099
Feature(s): RDI,FlashDL,FlashBP,JFlash  returns O.K. (0262ms, 0530ms total)
T4D68 000:603 JLINK_SetErrorOutHandler(...) (0000ms, 0530ms total)
T4D68 000:603 JLINK_ExecCommand("ProjectFile = "C:\Users\Mr.u\Desktop\海绵宝宝派大星省赛712换摄像头 - 副本 - 副本\PRJ\JLinkSettings.ini"", ...)  returns 0x00 (0000ms, 0530ms total)
T4D68 000:610 JLINK_ExecCommand("Device = MK66FX1M0xxx18", ...)Device "MK66FX1M0XXX18" selected.  returns 0x00 (0012ms, 0542ms total)
T4D68 000:622 JLINK_ExecCommand("DisableConnectionTimeout", ...)  returns 0x01 (0000ms, 0542ms total)
T4D68 000:622 JLINK_GetHardwareVersion()  returns 0x13880 (0000ms, 0542ms total)
T4D68 000:622 JLINK_GetDLLVersion()  returns 49604 (0000ms, 0542ms total)
T4D68 000:622 JLINK_GetFirmwareString(...) (0000ms, 0542ms total)
T4D68 000:632 JLINK_GetDLLVersion()  returns 49604 (0000ms, 0542ms total)
T4D68 000:632 JLINK_GetCompileDateTime() (0000ms, 0542ms total)
T4D68 000:634 JLINK_GetFirmwareString(...) (0000ms, 0542ms total)
T4D68 000:636 JLINK_GetHardwareVersion()  returns 0x13880 (0000ms, 0542ms total)
T4D68 000:644 JLINK_TIF_Select(JLINKARM_TIF_JTAG)  returns 0x00 (0001ms, 0543ms total)
T4D68 000:646 JLINK_SetSpeed(5000) (0000ms, 0544ms total)
T4D68 000:646 JLINK_GetIdData(...) >0x2F8 JTAG>TotalIRLen = 4, IRPrint = 0x01 >0x30 JTAG> >0x210 JTAG> >0x40 JTAG> >0x40 JTAG> >0x40 JTAG> >0x30 JTAG> >0x40 JTAG> >0x40 JTAG> >0x40 JTAG> >0x40 JTAG> >0x40 JTAG> >0x40 JTAG> >0x40 JTAG> >0x40 JTAG> >0x40 JTAG> >0x40 JTAG> >0x40 JTAG> >0x40 JTAG> >0x40 JTAG> >0x40 JTAG> >0x40 JTAG> >0x40 JTAG> >0x40 JTAG> >0x40 JTAG> >0x40 JTAG> >0x40 JTAG> >0x40 JTAG> >0x2F8 JTAG>TotalIRLen = 4, IRPrint = 0x01 >0x30 JTAG> >0x210 JTAG> >0x70 JTAG> >0x40 JTAG> >0x40 JTAG>
 >0x40 JTAG> >0x48 JTAG> >0x78 JTAG> >0x40 JTAG> >0x30 JTAG> >0x40 JTAG> >0x40 JTAG> >0x30 JTAG> >0x40 JTAG> >0x48 JTAG>Found Cortex-M4 r0p1, Little endian. -- CPU_WriteMem(4 bytes @ 0xE0002000) -- CPU_ReadMem(4 bytes @ 0xE000EDF0) -- CPU_ReadMem(4 bytes @ 0xE0002000)FPUnit: 6 code (BP) slots and 2 literal slots -- CPU_ReadMem(4 bytes @ 0xE000EDFC) -- CPU_WriteMem(4 bytes @ 0xE000EDFC) -- CPU_ReadMem(4 bytes @ 0xE0001000) -- CPU_WriteMem(4 bytes @ 0xE0001000) -- CPU_ReadMem(4 bytes @ 0xE000ED88)
 -- CPU_WriteMem(4 bytes @ 0xE000ED88) -- CPU_ReadMem(4 bytes @ 0xE000ED88) -- CPU_WriteMem(4 bytes @ 0xE000ED88) -- CPU_ReadMem(4 bytes @ 0xE00FF010)TPIU fitted. -- CPU_ReadMem(4 bytes @ 0xE00FF014)ETM fitted. -- CPU_ReadMem(4 bytes @ 0xE00FF018) -- CPU_ReadMem(4 bytes @ 0xE0042FE0) -- CPU_ReadMem(4 bytes @ 0xE0042FE4)ETB present. -- CPU_ReadMem(4 bytes @ 0xE00FF01C) -- CPU_ReadMem(4 bytes @ 0xE0043FE0) -- CPU_ReadMem(4 bytes @ 0xE0043FE4)CSTF present. -- CPU_ReadMem(4 bytes @ 0xE00FF020)
 -- CPU_ReadMem(2 bytes @ 0x40052000) ScanLen=4 NumDevices=1 aId[0]=0x4BA00477 aIrRead[0]=0 aScanLen[0]=0 aScanRead[0]=0 (0047ms, 0591ms total)
T4D68 000:693 JLINK_JTAG_GetDeviceID(DeviceIndex = 0)  returns 0x4BA00477 (0000ms, 0591ms total)
T4D68 000:693 JLINK_JTAG_GetDeviceInfo(DeviceIndex = 0)  returns 0x00 (0000ms, 0591ms total)
T4D68 000:693 JLINK_GetDLLVersion()  returns 49604 (0000ms, 0591ms total)
T4D68 000:693 JLINK_CORE_GetFound()  returns 0xE0000FF (0000ms, 0591ms total)
T4D68 000:693 JLINK_GetDebugInfo(0x100) -- Value=0xE00FF003  returns 0x00 (0000ms, 0591ms total)
T4D68 000:695 JLINK_ReadMem (0xE00FF000, 0x0020 Bytes, ...) -- CPU is running -- CPU_ReadMem(32 bytes @ 0xE00FF000) - Data: 03 F0 F0 FF 03 20 F0 FF 03 30 F0 FF 03 10 F0 FF ...  returns 0x00 (0001ms, 0592ms total)
T4D68 000:696 JLINK_ReadMem (0xE000EFF0, 0x0010 Bytes, ...) -- CPU is running -- CPU_ReadMem(16 bytes @ 0xE000EFF0) - Data: 0D 00 00 00 E0 00 00 00 05 00 00 00 B1 00 00 00  returns 0x00 (0000ms, 0592ms total)
T4D68 000:696 JLINK_ReadMem (0xE000EFD0, 0x0020 Bytes, ...) -- CPU is running -- CPU_ReadMem(32 bytes @ 0xE000EFD0) - Data: 04 00 00 00 00 00 00 00 00 00 00 00 00 00 00 00 ...  returns 0x00 (0001ms, 0593ms total)
T4D68 000:697 JLINK_ReadMem (0xE0001FF0, 0x0010 Bytes, ...) -- CPU is running -- CPU_ReadMem(16 bytes @ 0xE0001FF0) - Data: 0D 00 00 00 E0 00 00 00 05 00 00 00 B1 00 00 00  returns 0x00 (0001ms, 0594ms total)
T4D68 000:698 JLINK_ReadMem (0xE0001FD0, 0x0020 Bytes, ...) -- CPU is running -- CPU_ReadMem(32 bytes @ 0xE0001FD0) - Data: 04 00 00 00 00 00 00 00 00 00 00 00 00 00 00 00 ...  returns 0x00 (0000ms, 0594ms total)
T4D68 000:698 JLINK_ReadMem (0xE0002FF0, 0x0010 Bytes, ...) -- CPU is running -- CPU_ReadMem(16 bytes @ 0xE0002FF0) - Data: 0D 00 00 00 E0 00 00 00 05 00 00 00 B1 00 00 00  returns 0x00 (0002ms, 0596ms total)
T4D68 000:700 JLINK_ReadMem (0xE0002FD0, 0x0020 Bytes, ...) -- CPU is running -- CPU_ReadMem(32 bytes @ 0xE0002FD0) - Data: 04 00 00 00 00 00 00 00 00 00 00 00 00 00 00 00 ...  returns 0x00 (0000ms, 0596ms total)
T4D68 000:700 JLINK_ReadMem (0xE0000FF0, 0x0010 Bytes, ...) -- CPU is running -- CPU_ReadMem(16 bytes @ 0xE0000FF0) - Data: 0D 00 00 00 E0 00 00 00 05 00 00 00 B1 00 00 00  returns 0x00 (0001ms, 0597ms total)
T4D68 000:701 JLINK_ReadMem (0xE0000FD0, 0x0020 Bytes, ...) -- CPU is running -- CPU_ReadMem(32 bytes @ 0xE0000FD0) - Data: 04 00 00 00 00 00 00 00 00 00 00 00 00 00 00 00 ...  returns 0x00 (0001ms, 0598ms total)
T4D68 000:702 JLINK_ReadMem (0xE0040FF0, 0x0010 Bytes, ...) -- CPU is running -- CPU_ReadMem(16 bytes @ 0xE0040FF0) - Data: 0D 00 00 00 90 00 00 00 05 00 00 00 B1 00 00 00  returns 0x00 (0000ms, 0598ms total)
T4D68 000:702 JLINK_ReadMem (0xE0040FD0, 0x0020 Bytes, ...) -- CPU is running -- CPU_ReadMem(32 bytes @ 0xE0040FD0) - Data: 04 00 00 00 00 00 00 00 00 00 00 00 00 00 00 00 ...  returns 0x00 (0001ms, 0599ms total)
T4D68 000:703 JLINK_ReadMem (0xE0041FF0, 0x0010 Bytes, ...) -- CPU is running -- CPU_ReadMem(16 bytes @ 0xE0041FF0) - Data: 0D 00 00 00 90 00 00 00 05 00 00 00 B1 00 00 00  returns 0x00 (0001ms, 0600ms total)
T4D68 000:704 JLINK_ReadMem (0xE0041FD0, 0x0020 Bytes, ...) -- CPU is running -- CPU_ReadMem(32 bytes @ 0xE0041FD0) - Data: 04 00 00 00 00 00 00 00 00 00 00 00 00 00 00 00 ...  returns 0x00 (0000ms, 0600ms total)
T4D68 000:704 JLINK_ReadMem (0xE0042FF0, 0x0010 Bytes, ...) -- CPU is running -- CPU_ReadMem(16 bytes @ 0xE0042FF0) - Data: 0D 00 00 00 90 00 00 00 05 00 00 00 B1 00 00 00  returns 0x00 (0001ms, 0601ms total)
T4D68 000:705 JLINK_ReadMem (0xE0042FD0, 0x0020 Bytes, ...) -- CPU is running -- CPU_ReadMem(32 bytes @ 0xE0042FD0) - Data: 04 00 00 00 00 00 00 00 00 00 00 00 00 00 00 00 ...  returns 0x00 (0000ms, 0601ms total)
T4D68 000:705 JLINK_ReadMem (0xE0043FF0, 0x0010 Bytes, ...) -- CPU is running -- CPU_ReadMem(16 bytes @ 0xE0043FF0) - Data: 0D 00 00 00 90 00 00 00 05 00 00 00 B1 00 00 00  returns 0x00 (0001ms, 0602ms total)
T4D68 000:706 JLINK_ReadMem (0xE0043FD0, 0x0020 Bytes, ...) -- CPU is running -- CPU_ReadMem(32 bytes @ 0xE0043FD0) - Data: 04 00 00 00 00 00 00 00 00 00 00 00 00 00 00 00 ...  returns 0x00 (0001ms, 0603ms total)
T4D68 000:707 JLINK_ReadMem (0xE00FF020, 0x0020 Bytes, ...) -- CPU is running -- CPU_ReadMem(32 bytes @ 0xE00FF020) - Data: 00 00 00 00 00 00 00 00 00 00 00 00 00 00 00 00 ...  returns 0x00 (0001ms, 0604ms total)
T4D68 000:708 JLINK_ReadMemU32(0xE000EF40, 0x0001 Items, ...) -- CPU is running -- CPU_ReadMem(4 bytes @ 0xE000EF40) - Data: 21 00 11 10  returns 0x01 (0000ms, 0604ms total)
T4D68 000:708 JLINK_ReadMemU32(0xE000EF44, 0x0001 Items, ...) -- CPU is running -- CPU_ReadMem(4 bytes @ 0xE000EF44) - Data: 11 00 00 11  returns 0x01 (0001ms, 0605ms total)
T4D68 000:709 JLINK_ReadMemU32(0xE000ED00, 0x0001 Items, ...) -- CPU is running -- CPU_ReadMem(4 bytes @ 0xE000ED00) - Data: 41 C2 0F 41  returns 0x01 (0000ms, 0605ms total)
T4D68 000:709 JLINK_SetResetType(JLINKARM_RESET_TYPE_NORMAL)  returns JLINKARM_RESET_TYPE_SOFT (0000ms, 0605ms total)
T4D68 000:709 JLINK_Reset() -- CPU is running -- CPU_WriteMem(4 bytes @ 0xE000EDF0) -- CPU is running -- CPU_WriteMem(4 bytes @ 0xE000EDFC) -- CPU is running -- CPU_WriteMem(4 bytes @ 0xE000ED0C) -- CPU is running -- CPU_ReadMem(4 bytes @ 0xE000EDF0) -- CPU is running -- CPU_ReadMem(4 bytes @ 0xE000EDF0) -- CPU is running -- CPU_WriteMem(4 bytes @ 0xE000EDF0) -- CPU is running -- CPU_WriteMem(4 bytes @ 0xE000EDFC) -- CPU is running -- CPU_ReadMem(4 bytes @ 0xE000EDF0) >0x78 JTAG> >0x40 JTAG> >0x30 JTAG>
 >0x40 JTAG> >0x48 JTAG> >0x40 JTAG> -- CPU_ReadMem(8 bytes @ 0x20000000) -- CPU_WriteMem(8 bytes @ 0x20000000) >0x2C8 JTAG> >0x1E8 JTAG> >0x1E8 JTAG> >0x1E8 JTAG> >0x1E8 JTAG> >0x218 JTAG> >0x218 JTAG> >0x170 JTAG> >0x1598 JTAG> -- CPU_WriteMem(8 bytes @ 0x20000000) -- CPU_WriteMem(4 bytes @ 0xE000EDFC) -- CPU_WriteMem(4 bytes @ 0xE0001028) -- CPU_WriteMem(4 bytes @ 0xE0001038) -- CPU_WriteMem(4 bytes @ 0xE0001048) -- CPU_WriteMem(4 bytes @ 0xE0001058) -- CPU_WriteMem(4 bytes @ 0xE0002000)
 -- CPU_ReadMem(4 bytes @ 0xE000EDFC) -- CPU_ReadMem(4 bytes @ 0xE0001000) (0033ms, 0638ms total)
T4D68 000:742 JLINK_Halt()  returns 0x00 (0000ms, 0638ms total)
T4D68 000:742 JLINK_IsHalted()  returns TRUE (0000ms, 0638ms total)
T4D68 000:742 JLINK_ReadMemU32(0xE000EDF0, 0x0001 Items, ...) -- CPU_ReadMem(4 bytes @ 0xE000EDF0) - Data: 03 00 03 00  returns 0x01 (0000ms, 0638ms total)
T4D68 000:742 JLINK_WriteU32(0xE000EDF0, 0xA05F0003) -- CPU_WriteMem(4 bytes @ 0xE000EDF0)  returns 0x00 (0001ms, 0639ms total)
T4D68 000:743 JLINK_WriteU32(0xE000EDFC, 0x01000000) -- CPU_WriteMem(4 bytes @ 0xE000EDFC)  returns 0x00 (0000ms, 0639ms total)
T4D68 000:749 JLINK_GetHWStatus(...)  returns 0x00 (0001ms, 0640ms total)
T4D68 000:754 JLINK_GetNumBPUnits(Type = 0xFFFFFF00)  returns 0x06 (0000ms, 0640ms total)
T4D68 000:754 JLINK_GetNumBPUnits(Type = 0xF0)  returns 0x2000 (0000ms, 0640ms total)
T4D68 000:754 JLINK_GetNumWPUnits()  returns 0x04 (0000ms, 0640ms total)
T4D68 000:758 JLINK_GetSpeed()  returns 0x12C0 (0000ms, 0640ms total)
T4D68 000:761 JLINK_ReadMemU32(0xE000E004, 0x0001 Items, ...) -- CPU_ReadMem(4 bytes @ 0xE000E004) - Data: 03 00 00 00  returns 0x01 (0001ms, 0641ms total)
T4D68 000:762 JLINK_ReadMemU32(0xE000E004, 0x0001 Items, ...) -- CPU_ReadMem(4 bytes @ 0xE000E004) - Data: 03 00 00 00  returns 0x01 (0001ms, 0642ms total)
T4D68 000:763 JLINK_WriteMem(0xE0001000, 0x001C Bytes, ...) - Data: 01 00 00 00 00 00 00 00 00 00 00 00 00 00 00 00 ... -- CPU_WriteMem(28 bytes @ 0xE0001000)  returns 0x1C (0001ms, 0643ms total)
T4D68 000:764 JLINK_ReadMem (0xE0001000, 0x001C Bytes, ...) -- CPU_ReadMem(28 bytes @ 0xE0001000) - Data: 01 00 00 40 00 00 00 00 00 00 00 00 00 00 00 00 ...  returns 0x00 (0000ms, 0643ms total)
T4D68 000:764 JLINK_Halt()  returns 0x00 (0000ms, 0643ms total)
T4D68 000:764 JLINK_IsHalted()  returns TRUE (0000ms, 0643ms total)
T4D68 000:766 JLINK_WriteMem(0x20000000, 0x0440 Bytes, ...) - Data: 00 BE 0A E0 0D 78 2D 06 68 40 08 24 40 00 00 D3 ... -- CPU_WriteMem(1088 bytes @ 0x20000000)  returns 0x440 (0004ms, 0647ms total)
T4D68 000:770 JLINK_WriteReg(R0, 0x00000000)  returns 0x00 (0000ms, 0647ms total)
T4D68 000:770 JLINK_WriteReg(R1, 0x00B71B00)  returns 0x00 (0000ms, 0647ms total)
T4D68 000:770 JLINK_WriteReg(R2, 0x00000001)  returns 0x00 (0000ms, 0647ms total)
T4D68 000:770 JLINK_WriteReg(R3, 0x00000000)  returns 0x00 (0000ms, 0647ms total)
T4D68 000:770 JLINK_WriteReg(R4, 0x00000000)  returns 0x00 (0000ms, 0647ms total)
T4D68 000:770 JLINK_WriteReg(R5, 0x00000000)  returns 0x00 (0000ms, 0647ms total)
T4D68 000:770 JLINK_WriteReg(R6, 0x00000000)  returns 0x00 (0000ms, 0647ms total)
T4D68 000:770 JLINK_WriteReg(R7, 0x00000000)  returns 0x00 (0000ms, 0647ms total)
T4D68 000:770 JLINK_WriteReg(R8, 0x00000000)  returns 0x00 (0000ms, 0647ms total)
T4D68 000:770 JLINK_WriteReg(R9, 0x20000438)  returns 0x00 (0000ms, 0647ms total)
T4D68 000:770 JLINK_WriteReg(R10, 0x00000000)  returns 0x00 (0000ms, 0647ms total)
T4D68 000:770 JLINK_WriteReg(R11, 0x00000000)  returns 0x00 (0000ms, 0647ms total)
T4D68 000:770 JLINK_WriteReg(R12, 0x00000000)  returns 0x00 (0000ms, 0647ms total)
T4D68 000:770 JLINK_WriteReg(R13 (SP), 0x20001000)  returns 0x00 (0000ms, 0647ms total)
T4D68 000:770 JLINK_WriteReg(R14, 0x20000001)  returns 0x00 (0000ms, 0647ms total)
T4D68 000:770 JLINK_WriteReg(R15 (PC), 0x20000020)  returns 0x00 (0000ms, 0647ms total)
T4D68 000:770 JLINK_WriteReg(XPSR, 0x01000000)  returns 0x00 (0000ms, 0647ms total)
T4D68 000:770 JLINK_WriteReg(MSP, 0x20001000)  returns 0x00 (0000ms, 0647ms total)
T4D68 000:770 JLINK_WriteReg(PSP, 0x20001000)  returns 0x00 (0000ms, 0647ms total)
T4D68 000:770 JLINK_WriteReg(CFBP, 0x00000000)  returns 0x00 (0000ms, 0647ms total)
T4D68 000:770 JLINK_SetBPEx(Addr = 0x20000000, Type = 0xFFFFFFF2) -- CPU_ReadMem(2 bytes @ 0x20000000)  returns 0x00000001 (0001ms, 0648ms total)
T4D68 000:771 JLINK_Go() -- CPU_WriteMem(2 bytes @ 0x20000000) -- CPU_WriteMem(4 bytes @ 0xE0002008) -- CPU_WriteMem(4 bytes @ 0xE000200C) -- CPU_WriteMem(4 bytes @ 0xE0002010) -- CPU_WriteMem(4 bytes @ 0xE0002014) -- CPU_WriteMem(4 bytes @ 0xE0002018) -- CPU_WriteMem(4 bytes @ 0xE000201C) -- CPU_WriteMem(4 bytes @ 0xE0001004) (0005ms, 0653ms total)
T4D68 000:776 JLINK_IsHalted() -- CPU_ReadMem(2 bytes @ 0x20000000)  returns TRUE (0003ms, 0656ms total)
T4D68 000:779 JLINK_ReadReg(R15 (PC))  returns 0x20000000 (0000ms, 0653ms total)
T4D68 000:779 JLINK_ClrBPEx(BPHandle = 0x00000001)  returns 0x00 (0000ms, 0653ms total)
T4D68 000:779 JLINK_ReadReg(R0)  returns 0x00000000 (0000ms, 0653ms total)
T4D68 000:779 JLINK_WriteReg(R0, 0x00000000)  returns 0x00 (0001ms, 0654ms total)
T4D68 000:780 JLINK_WriteReg(R1, 0x00001000)  returns 0x00 (0000ms, 0654ms total)
T4D68 000:780 JLINK_WriteReg(R2, 0x000000FF)  returns 0x00 (0000ms, 0654ms total)
T4D68 000:780 JLINK_WriteReg(R3, 0x00000000)  returns 0x00 (0000ms, 0654ms total)
T4D68 000:780 JLINK_WriteReg(R4, 0x00000000)  returns 0x00 (0000ms, 0654ms total)
T4D68 000:780 JLINK_WriteReg(R5, 0x00000000)  returns 0x00 (0000ms, 0654ms total)
T4D68 000:780 JLINK_WriteReg(R6, 0x00000000)  returns 0x00 (0000ms, 0654ms total)
T4D68 000:780 JLINK_WriteReg(R7, 0x00000000)  returns 0x00 (0000ms, 0654ms total)
T4D68 000:780 JLINK_WriteReg(R8, 0x00000000)  returns 0x00 (0000ms, 0654ms total)
T4D68 000:780 JLINK_WriteReg(R9, 0x20000438)  returns 0x00 (0000ms, 0654ms total)
T4D68 000:780 JLINK_WriteReg(R10, 0x00000000)  returns 0x00 (0000ms, 0654ms total)
T4D68 000:780 JLINK_WriteReg(R11, 0x00000000)  returns 0x00 (0000ms, 0654ms total)
T4D68 000:780 JLINK_WriteReg(R12, 0x00000000)  returns 0x00 (0000ms, 0654ms total)
T4D68 000:780 JLINK_WriteReg(R13 (SP), 0x20001000)  returns 0x00 (0000ms, 0654ms total)
T4D68 000:780 JLINK_WriteReg(R14, 0x20000001)  returns 0x00 (0000ms, 0654ms total)
T4D68 000:780 JLINK_WriteReg(R15 (PC), 0x20000074)  returns 0x00 (0000ms, 0654ms total)
T4D68 000:780 JLINK_WriteReg(XPSR, 0x01000000)  returns 0x00 (0000ms, 0654ms total)
T4D68 000:780 JLINK_WriteReg(MSP, 0x20001000)  returns 0x00 (0000ms, 0654ms total)
T4D68 000:780 JLINK_WriteReg(PSP, 0x20001000)  returns 0x00 (0000ms, 0654ms total)
T4D68 000:780 JLINK_WriteReg(CFBP, 0x00000000)  returns 0x00 (0000ms, 0654ms total)
T4D68 000:780 JLINK_SetBPEx(Addr = 0x20000000, Type = 0xFFFFFFF2)  returns 0x00000002 (0000ms, 0654ms total)
T4D68 000:780 JLINK_Go() (0001ms, 0655ms total)
T4D68 000:781 JLINK_IsHalted() -- CPU_ReadMem(2 bytes @ 0x20000000)  returns TRUE (0003ms, 0658ms total)
T4D68 000:784 JLINK_ReadReg(R15 (PC))  returns 0x20000000 (0000ms, 0655ms total)
T4D68 000:784 JLINK_ClrBPEx(BPHandle = 0x00000002)  returns 0x00 (0000ms, 0655ms total)
T4D68 000:784 JLINK_ReadReg(R0)  returns 0x00000001 (0000ms, 0655ms total)
T4D68 000:784 JLINK_WriteReg(R0, 0x00000000)  returns 0x00 (0000ms, 0655ms total)
T4D68 000:784 JLINK_WriteReg(R1, 0x00001000)  returns 0x00 (0000ms, 0655ms total)
T4D68 000:784 JLINK_WriteReg(R2, 0x000000FF)  returns 0x00 (0000ms, 0655ms total)
T4D68 000:784 JLINK_WriteReg(R3, 0x00000000)  returns 0x00 (0000ms, 0655ms total)
T4D68 000:784 JLINK_WriteReg(R4, 0x00000000)  returns 0x00 (0000ms, 0655ms total)
T4D68 000:784 JLINK_WriteReg(R5, 0x00000000)  returns 0x00 (0000ms, 0655ms total)
T4D68 000:784 JLINK_WriteReg(R6, 0x00000000)  returns 0x00 (0000ms, 0655ms total)
T4D68 000:784 JLINK_WriteReg(R7, 0x00000000)  returns 0x00 (0000ms, 0655ms total)
T4D68 000:784 JLINK_WriteReg(R8, 0x00000000)  returns 0x00 (0000ms, 0655ms total)
T4D68 000:784 JLINK_WriteReg(R9, 0x20000438)  returns 0x00 (0000ms, 0655ms total)
T4D68 000:784 JLINK_WriteReg(R10, 0x00000000)  returns 0x00 (0000ms, 0655ms total)
T4D68 000:784 JLINK_WriteReg(R11, 0x00000000)  returns 0x00 (0000ms, 0655ms total)
T4D68 000:784 JLINK_WriteReg(R12, 0x00000000)  returns 0x00 (0000ms, 0655ms total)
T4D68 000:784 JLINK_WriteReg(R13 (SP), 0x20001000)  returns 0x00 (0000ms, 0655ms total)
T4D68 000:784 JLINK_WriteReg(R14, 0x20000001)  returns 0x00 (0001ms, 0656ms total)
T4D68 000:785 JLINK_WriteReg(R15 (PC), 0x200000CA)  returns 0x00 (0000ms, 0656ms total)
T4D68 000:785 JLINK_WriteReg(XPSR, 0x01000000)  returns 0x00 (0000ms, 0656ms total)
T4D68 000:785 JLINK_WriteReg(MSP, 0x20001000)  returns 0x00 (0000ms, 0656ms total)
T4D68 000:785 JLINK_WriteReg(PSP, 0x20001000)  returns 0x00 (0000ms, 0656ms total)
T4D68 000:785 JLINK_WriteReg(CFBP, 0x00000000)  returns 0x00 (0000ms, 0656ms total)
T4D68 000:785 JLINK_SetBPEx(Addr = 0x20000000, Type = 0xFFFFFFF2)  returns 0x00000003 (0000ms, 0656ms total)
T4D68 000:785 JLINK_Go() (0001ms, 0657ms total)
T4D68 000:786 JLINK_IsHalted()  returns FALSE (0000ms, 0657ms total)
T4D68 000:826 JLINK_IsHalted() -- CPU_ReadMem(2 bytes @ 0x20000000)  returns TRUE (0004ms, 0661ms total)
T4D68 000:830 JLINK_ReadReg(R15 (PC))  returns 0x20000000 (0000ms, 0657ms total)
T4D68 000:830 JLINK_ClrBPEx(BPHandle = 0x00000003)  returns 0x00 (0000ms, 0657ms total)
T4D68 000:830 JLINK_ReadReg(R0)  returns 0x00000000 (0000ms, 0657ms total)
T4D68 000:831 JLINK_WriteReg(R0, 0x00001000)  returns 0x00 (0000ms, 0657ms total)
T4D68 000:831 JLINK_WriteReg(R1, 0x00001000)  returns 0x00 (0000ms, 0657ms total)
T4D68 000:831 JLINK_WriteReg(R2, 0x000000FF)  returns 0x00 (0000ms, 0657ms total)
T4D68 000:831 JLINK_WriteReg(R3, 0x00000000)  returns 0x00 (0000ms, 0657ms total)
T4D68 000:831 JLINK_WriteReg(R4, 0x00000000)  returns 0x00 (0000ms, 0657ms total)
T4D68 000:831 JLINK_WriteReg(R5, 0x00000000)  returns 0x00 (0000ms, 0657ms total)
T4D68 000:831 JLINK_WriteReg(R6, 0x00000000)  returns 0x00 (0000ms, 0657ms total)
T4D68 000:831 JLINK_WriteReg(R7, 0x00000000)  returns 0x00 (0000ms, 0657ms total)
T4D68 000:831 JLINK_WriteReg(R8, 0x00000000)  returns 0x00 (0000ms, 0657ms total)
T4D68 000:831 JLINK_WriteReg(R9, 0x20000438)  returns 0x00 (0000ms, 0657ms total)
T4D68 000:831 JLINK_WriteReg(R10, 0x00000000)  returns 0x00 (0000ms, 0657ms total)
T4D68 000:831 JLINK_WriteReg(R11, 0x00000000)  returns 0x00 (0000ms, 0657ms total)
T4D68 000:831 JLINK_WriteReg(R12, 0x00000000)  returns 0x00 (0000ms, 0657ms total)
T4D68 000:831 JLINK_WriteReg(R13 (SP), 0x20001000)  returns 0x00 (0000ms, 0657ms total)
T4D68 000:831 JLINK_WriteReg(R14, 0x20000001)  returns 0x00 (0000ms, 0657ms total)
T4D68 000:831 JLINK_WriteReg(R15 (PC), 0x20000074)  returns 0x00 (0000ms, 0657ms total)
T4D68 000:831 JLINK_WriteReg(XPSR, 0x01000000)  returns 0x00 (0000ms, 0657ms total)
T4D68 000:831 JLINK_WriteReg(MSP, 0x20001000)  returns 0x00 (0000ms, 0657ms total)
T4D68 000:831 JLINK_WriteReg(PSP, 0x20001000)  returns 0x00 (0000ms, 0657ms total)
T4D68 000:831 JLINK_WriteReg(CFBP, 0x00000000)  returns 0x00 (0000ms, 0657ms total)
T4D68 000:831 JLINK_SetBPEx(Addr = 0x20000000, Type = 0xFFFFFFF2)  returns 0x00000004 (0000ms, 0657ms total)
T4D68 000:831 JLINK_Go() (0001ms, 0658ms total)
T4D68 000:833 JLINK_IsHalted() -- CPU_ReadMem(2 bytes @ 0x20000000)  returns TRUE (0004ms, 0662ms total)
T4D68 000:837 JLINK_ReadReg(R15 (PC))  returns 0x20000000 (0000ms, 0658ms total)
T4D68 000:837 JLINK_ClrBPEx(BPHandle = 0x00000004)  returns 0x00 (0000ms, 0658ms total)
T4D68 000:837 JLINK_ReadReg(R0)  returns 0x00000001 (0000ms, 0658ms total)
T4D68 000:837 JLINK_WriteReg(R0, 0x00001000)  returns 0x00 (0000ms, 0658ms total)
T4D68 000:837 JLINK_WriteReg(R1, 0x00001000)  returns 0x00 (0000ms, 0658ms total)
T4D68 000:837 JLINK_WriteReg(R2, 0x000000FF)  returns 0x00 (0000ms, 0658ms total)
T4D68 000:837 JLINK_WriteReg(R3, 0x00000000)  returns 0x00 (0000ms, 0658ms total)
T4D68 000:837 JLINK_WriteReg(R4, 0x00000000)  returns 0x00 (0000ms, 0658ms total)
T4D68 000:837 JLINK_WriteReg(R5, 0x00000000)  returns 0x00 (0000ms, 0658ms total)
T4D68 000:837 JLINK_WriteReg(R6, 0x00000000)  returns 0x00 (0000ms, 0658ms total)
T4D68 000:837 JLINK_WriteReg(R7, 0x00000000)  returns 0x00 (0000ms, 0658ms total)
T4D68 000:837 JLINK_WriteReg(R8, 0x00000000)  returns 0x00 (0000ms, 0658ms total)
T4D68 000:837 JLINK_WriteReg(R9, 0x20000438)  returns 0x00 (0000ms, 0658ms total)
T4D68 000:837 JLINK_WriteReg(R10, 0x00000000)  returns 0x00 (0000ms, 0658ms total)
T4D68 000:837 JLINK_WriteReg(R11, 0x00000000)  returns 0x00 (0000ms, 0658ms total)
T4D68 000:837 JLINK_WriteReg(R12, 0x00000000)  returns 0x00 (0000ms, 0658ms total)
T4D68 000:837 JLINK_WriteReg(R13 (SP), 0x20001000)  returns 0x00 (0000ms, 0658ms total)
T4D68 000:837 JLINK_WriteReg(R14, 0x20000001)  returns 0x00 (0000ms, 0658ms total)
T4D68 000:837 JLINK_WriteReg(R15 (PC), 0x200000CA)  returns 0x00 (0000ms, 0658ms total)
T4D68 000:837 JLINK_WriteReg(XPSR, 0x01000000)  returns 0x00 (0000ms, 0658ms total)
T4D68 000:837 JLINK_WriteReg(MSP, 0x20001000)  returns 0x00 (0000ms, 0658ms total)
T4D68 000:837 JLINK_WriteReg(PSP, 0x20001000)  returns 0x00 (0000ms, 0658ms total)
T4D68 000:837 JLINK_WriteReg(CFBP, 0x00000000)  returns 0x00 (0000ms, 0658ms total)
T4D68 000:837 JLINK_SetBPEx(Addr = 0x20000000, Type = 0xFFFFFFF2)  returns 0x00000005 (0000ms, 0658ms total)
T4D68 000:837 JLINK_Go() (0002ms, 0660ms total)
T4D68 000:839 JLINK_IsHalted()  returns FALSE (0000ms, 0660ms total)
T4D68 000:841 JLINK_IsHalted()  returns FALSE (0000ms, 0660ms total)
T4D68 000:843 JLINK_IsHalted()  returns FALSE (0000ms, 0660ms total)
T4D68 000:845 JLINK_IsHalted()  returns FALSE (0000ms, 0660ms total)
T4D68 000:846 JLINK_IsHalted() -- CPU_ReadMem(2 bytes @ 0x20000000)  returns TRUE (0004ms, 0664ms total)
T4D68 000:850 JLINK_ReadReg(R15 (PC))  returns 0x20000000 (0000ms, 0660ms total)
T4D68 000:850 JLINK_ClrBPEx(BPHandle = 0x00000005)  returns 0x00 (0000ms, 0660ms total)
T4D68 000:850 JLINK_ReadReg(R0)  returns 0x00000000 (0000ms, 0660ms total)
T4D68 000:851 JLINK_WriteReg(R0, 0x00002000)  returns 0x00 (0000ms, 0660ms total)
T4D68 000:851 JLINK_WriteReg(R1, 0x00001000)  returns 0x00 (0000ms, 0660ms total)
T4D68 000:851 JLINK_WriteReg(R2, 0x000000FF)  returns 0x00 (0000ms, 0660ms total)
T4D68 000:851 JLINK_WriteReg(R3, 0x00000000)  returns 0x00 (0000ms, 0660ms total)
T4D68 000:851 JLINK_WriteReg(R4, 0x00000000)  returns 0x00 (0000ms, 0660ms total)
T4D68 000:851 JLINK_WriteReg(R5, 0x00000000)  returns 0x00 (0000ms, 0660ms total)
T4D68 000:851 JLINK_WriteReg(R6, 0x00000000)  returns 0x00 (0000ms, 0660ms total)
T4D68 000:851 JLINK_WriteReg(R7, 0x00000000)  returns 0x00 (0000ms, 0660ms total)
T4D68 000:851 JLINK_WriteReg(R8, 0x00000000)  returns 0x00 (0000ms, 0660ms total)
T4D68 000:851 JLINK_WriteReg(R9, 0x20000438)  returns 0x00 (0000ms, 0660ms total)
T4D68 000:851 JLINK_WriteReg(R10, 0x00000000)  returns 0x00 (0000ms, 0660ms total)
T4D68 000:851 JLINK_WriteReg(R11, 0x00000000)  returns 0x00 (0000ms, 0660ms total)
T4D68 000:851 JLINK_WriteReg(R12, 0x00000000)  returns 0x00 (0000ms, 0660ms total)
T4D68 000:851 JLINK_WriteReg(R13 (SP), 0x20001000)  returns 0x00 (0000ms, 0660ms total)
T4D68 000:851 JLINK_WriteReg(R14, 0x20000001)  returns 0x00 (0000ms, 0660ms total)
T4D68 000:851 JLINK_WriteReg(R15 (PC), 0x20000074)  returns 0x00 (0000ms, 0660ms total)
T4D68 000:851 JLINK_WriteReg(XPSR, 0x01000000)  returns 0x00 (0000ms, 0660ms total)
T4D68 000:851 JLINK_WriteReg(MSP, 0x20001000)  returns 0x00 (0000ms, 0660ms total)
T4D68 000:851 JLINK_WriteReg(PSP, 0x20001000)  returns 0x00 (0000ms, 0660ms total)
T4D68 000:851 JLINK_WriteReg(CFBP, 0x00000000)  returns 0x00 (0000ms, 0660ms total)
T4D68 000:851 JLINK_SetBPEx(Addr = 0x20000000, Type = 0xFFFFFFF2)  returns 0x00000006 (0000ms, 0660ms total)
T4D68 000:851 JLINK_Go() (0002ms, 0662ms total)
T4D68 000:853 JLINK_IsHalted() -- CPU_ReadMem(2 bytes @ 0x20000000)  returns TRUE (0003ms, 0665ms total)
T4D68 000:856 JLINK_ReadReg(R15 (PC))  returns 0x20000000 (0000ms, 0662ms total)
T4D68 000:856 JLINK_ClrBPEx(BPHandle = 0x00000006)  returns 0x00 (0000ms, 0662ms total)
T4D68 000:856 JLINK_ReadReg(R0)  returns 0x00000001 (0000ms, 0662ms total)
T4D68 000:856 JLINK_WriteReg(R0, 0x00002000)  returns 0x00 (0000ms, 0662ms total)
T4D68 000:856 JLINK_WriteReg(R1, 0x00001000)  returns 0x00 (0000ms, 0662ms total)
T4D68 000:856 JLINK_WriteReg(R2, 0x000000FF)  returns 0x00 (0000ms, 0662ms total)
T4D68 000:856 JLINK_WriteReg(R3, 0x00000000)  returns 0x00 (0000ms, 0662ms total)
T4D68 000:856 JLINK_WriteReg(R4, 0x00000000)  returns 0x00 (0000ms, 0662ms total)
T4D68 000:856 JLINK_WriteReg(R5, 0x00000000)  returns 0x00 (0000ms, 0662ms total)
T4D68 000:856 JLINK_WriteReg(R6, 0x00000000)  returns 0x00 (0000ms, 0662ms total)
T4D68 000:856 JLINK_WriteReg(R7, 0x00000000)  returns 0x00 (0000ms, 0662ms total)
T4D68 000:856 JLINK_WriteReg(R8, 0x00000000)  returns 0x00 (0000ms, 0662ms total)
T4D68 000:856 JLINK_WriteReg(R9, 0x20000438)  returns 0x00 (0000ms, 0662ms total)
T4D68 000:856 JLINK_WriteReg(R10, 0x00000000)  returns 0x00 (0000ms, 0662ms total)
T4D68 000:856 JLINK_WriteReg(R11, 0x00000000)  returns 0x00 (0000ms, 0662ms total)
T4D68 000:856 JLINK_WriteReg(R12, 0x00000000)  returns 0x00 (0000ms, 0662ms total)
T4D68 000:856 JLINK_WriteReg(R13 (SP), 0x20001000)  returns 0x00 (0000ms, 0662ms total)
T4D68 000:856 JLINK_WriteReg(R14, 0x20000001)  returns 0x00 (0000ms, 0662ms total)
T4D68 000:856 JLINK_WriteReg(R15 (PC), 0x200000CA)  returns 0x00 (0000ms, 0662ms total)
T4D68 000:856 JLINK_WriteReg(XPSR, 0x01000000)  returns 0x00 (0000ms, 0662ms total)
T4D68 000:856 JLINK_WriteReg(MSP, 0x20001000)  returns 0x00 (0000ms, 0662ms total)
T4D68 000:856 JLINK_WriteReg(PSP, 0x20001000)  returns 0x00 (0000ms, 0662ms total)
T4D68 000:856 JLINK_WriteReg(CFBP, 0x00000000)  returns 0x00 (0000ms, 0662ms total)
T4D68 000:856 JLINK_SetBPEx(Addr = 0x20000000, Type = 0xFFFFFFF2)  returns 0x00000007 (0000ms, 0662ms total)
T4D68 000:856 JLINK_Go() (0002ms, 0664ms total)
T4D68 000:858 JLINK_IsHalted()  returns FALSE (0000ms, 0664ms total)
T4D68 000:859 JLINK_IsHalted()  returns FALSE (0001ms, 0665ms total)
T4D68 000:861 JLINK_IsHalted()  returns FALSE (0001ms, 0665ms total)
T4D68 000:864 JLINK_IsHalted() -- CPU_ReadMem(2 bytes @ 0x20000000)  returns TRUE (0003ms, 0667ms total)
T4D68 000:867 JLINK_ReadReg(R15 (PC))  returns 0x20000000 (0000ms, 0664ms total)
T4D68 000:867 JLINK_ClrBPEx(BPHandle = 0x00000007)  returns 0x00 (0000ms, 0664ms total)
T4D68 000:867 JLINK_ReadReg(R0)  returns 0x00000000 (0000ms, 0664ms total)
T4D68 000:868 JLINK_WriteReg(R0, 0x00003000)  returns 0x00 (0000ms, 0664ms total)
T4D68 000:868 JLINK_WriteReg(R1, 0x00001000)  returns 0x00 (0000ms, 0664ms total)
T4D68 000:868 JLINK_WriteReg(R2, 0x000000FF)  returns 0x00 (0000ms, 0664ms total)
T4D68 000:868 JLINK_WriteReg(R3, 0x00000000)  returns 0x00 (0000ms, 0664ms total)
T4D68 000:868 JLINK_WriteReg(R4, 0x00000000)  returns 0x00 (0000ms, 0664ms total)
T4D68 000:868 JLINK_WriteReg(R5, 0x00000000)  returns 0x00 (0000ms, 0664ms total)
T4D68 000:868 JLINK_WriteReg(R6, 0x00000000)  returns 0x00 (0000ms, 0664ms total)
T4D68 000:868 JLINK_WriteReg(R7, 0x00000000)  returns 0x00 (0000ms, 0664ms total)
T4D68 000:868 JLINK_WriteReg(R8, 0x00000000)  returns 0x00 (0000ms, 0664ms total)
T4D68 000:868 JLINK_WriteReg(R9, 0x20000438)  returns 0x00 (0000ms, 0664ms total)
T4D68 000:868 JLINK_WriteReg(R10, 0x00000000)  returns 0x00 (0000ms, 0664ms total)
T4D68 000:868 JLINK_WriteReg(R11, 0x00000000)  returns 0x00 (0000ms, 0664ms total)
T4D68 000:868 JLINK_WriteReg(R12, 0x00000000)  returns 0x00 (0000ms, 0664ms total)
T4D68 000:868 JLINK_WriteReg(R13 (SP), 0x20001000)  returns 0x00 (0000ms, 0664ms total)
T4D68 000:868 JLINK_WriteReg(R14, 0x20000001)  returns 0x00 (0000ms, 0664ms total)
T4D68 000:868 JLINK_WriteReg(R15 (PC), 0x20000074)  returns 0x00 (0000ms, 0664ms total)
T4D68 000:868 JLINK_WriteReg(XPSR, 0x01000000)  returns 0x00 (0000ms, 0664ms total)
T4D68 000:868 JLINK_WriteReg(MSP, 0x20001000)  returns 0x00 (0000ms, 0664ms total)
T4D68 000:868 JLINK_WriteReg(PSP, 0x20001000)  returns 0x00 (0000ms, 0664ms total)
T4D68 000:868 JLINK_WriteReg(CFBP, 0x00000000)  returns 0x00 (0000ms, 0664ms total)
T4D68 000:868 JLINK_SetBPEx(Addr = 0x20000000, Type = 0xFFFFFFF2)  returns 0x00000008 (0000ms, 0664ms total)
T4D68 000:868 JLINK_Go() (0001ms, 0665ms total)
T4D68 000:869 JLINK_IsHalted() -- CPU_ReadMem(2 bytes @ 0x20000000)  returns TRUE (0004ms, 0669ms total)
T4D68 000:873 JLINK_ReadReg(R15 (PC))  returns 0x20000000 (0000ms, 0665ms total)
T4D68 000:873 JLINK_ClrBPEx(BPHandle = 0x00000008)  returns 0x00 (0000ms, 0665ms total)
T4D68 000:873 JLINK_ReadReg(R0)  returns 0x00000001 (0000ms, 0665ms total)
T4D68 000:873 JLINK_WriteReg(R0, 0x00003000)  returns 0x00 (0000ms, 0665ms total)
T4D68 000:873 JLINK_WriteReg(R1, 0x00001000)  returns 0x00 (0000ms, 0665ms total)
T4D68 000:873 JLINK_WriteReg(R2, 0x000000FF)  returns 0x00 (0000ms, 0665ms total)
T4D68 000:873 JLINK_WriteReg(R3, 0x00000000)  returns 0x00 (0000ms, 0665ms total)
T4D68 000:873 JLINK_WriteReg(R4, 0x00000000)  returns 0x00 (0000ms, 0665ms total)
T4D68 000:873 JLINK_WriteReg(R5, 0x00000000)  returns 0x00 (0000ms, 0665ms total)
T4D68 000:873 JLINK_WriteReg(R6, 0x00000000)  returns 0x00 (0000ms, 0665ms total)
T4D68 000:873 JLINK_WriteReg(R7, 0x00000000)  returns 0x00 (0000ms, 0665ms total)
T4D68 000:873 JLINK_WriteReg(R8, 0x00000000)  returns 0x00 (0000ms, 0665ms total)
T4D68 000:873 JLINK_WriteReg(R9, 0x20000438)  returns 0x00 (0000ms, 0665ms total)
T4D68 000:873 JLINK_WriteReg(R10, 0x00000000)  returns 0x00 (0000ms, 0665ms total)
T4D68 000:873 JLINK_WriteReg(R11, 0x00000000)  returns 0x00 (0000ms, 0665ms total)
T4D68 000:873 JLINK_WriteReg(R12, 0x00000000)  returns 0x00 (0000ms, 0665ms total)
T4D68 000:873 JLINK_WriteReg(R13 (SP), 0x20001000)  returns 0x00 (0000ms, 0665ms total)
T4D68 000:873 JLINK_WriteReg(R14, 0x20000001)  returns 0x00 (0000ms, 0665ms total)
T4D68 000:873 JLINK_WriteReg(R15 (PC), 0x200000CA)  returns 0x00 (0000ms, 0665ms total)
T4D68 000:873 JLINK_WriteReg(XPSR, 0x01000000)  returns 0x00 (0000ms, 0665ms total)
T4D68 000:873 JLINK_WriteReg(MSP, 0x20001000)  returns 0x00 (0000ms, 0665ms total)
T4D68 000:873 JLINK_WriteReg(PSP, 0x20001000)  returns 0x00 (0000ms, 0665ms total)
T4D68 000:873 JLINK_WriteReg(CFBP, 0x00000000)  returns 0x00 (0000ms, 0665ms total)
T4D68 000:873 JLINK_SetBPEx(Addr = 0x20000000, Type = 0xFFFFFFF2)  returns 0x00000009 (0000ms, 0665ms total)
T4D68 000:873 JLINK_Go() (0001ms, 0666ms total)
T4D68 000:874 JLINK_IsHalted()  returns FALSE (0001ms, 0667ms total)
T4D68 000:876 JLINK_IsHalted()  returns FALSE (0001ms, 0667ms total)
T4D68 000:878 JLINK_IsHalted()  returns FALSE (0001ms, 0667ms total)
T4D68 000:880 JLINK_IsHalted() -- CPU_ReadMem(2 bytes @ 0x20000000)  returns TRUE (0003ms, 0669ms total)
T4D68 000:883 JLINK_ReadReg(R15 (PC))  returns 0x20000000 (0000ms, 0666ms total)
T4D68 000:883 JLINK_ClrBPEx(BPHandle = 0x00000009)  returns 0x00 (0000ms, 0666ms total)
T4D68 000:883 JLINK_ReadReg(R0)  returns 0x00000000 (0000ms, 0666ms total)
T4D68 000:884 JLINK_WriteReg(R0, 0x00004000)  returns 0x00 (0000ms, 0666ms total)
T4D68 000:884 JLINK_WriteReg(R1, 0x00001000)  returns 0x00 (0000ms, 0666ms total)
T4D68 000:884 JLINK_WriteReg(R2, 0x000000FF)  returns 0x00 (0000ms, 0666ms total)
T4D68 000:884 JLINK_WriteReg(R3, 0x00000000)  returns 0x00 (0000ms, 0666ms total)
T4D68 000:884 JLINK_WriteReg(R4, 0x00000000)  returns 0x00 (0000ms, 0666ms total)
T4D68 000:884 JLINK_WriteReg(R5, 0x00000000)  returns 0x00 (0000ms, 0666ms total)
T4D68 000:884 JLINK_WriteReg(R6, 0x00000000)  returns 0x00 (0000ms, 0666ms total)
T4D68 000:884 JLINK_WriteReg(R7, 0x00000000)  returns 0x00 (0000ms, 0666ms total)
T4D68 000:884 JLINK_WriteReg(R8, 0x00000000)  returns 0x00 (0000ms, 0666ms total)
T4D68 000:884 JLINK_WriteReg(R9, 0x20000438)  returns 0x00 (0000ms, 0666ms total)
T4D68 000:884 JLINK_WriteReg(R10, 0x00000000)  returns 0x00 (0000ms, 0666ms total)
T4D68 000:884 JLINK_WriteReg(R11, 0x00000000)  returns 0x00 (0000ms, 0666ms total)
T4D68 000:884 JLINK_WriteReg(R12, 0x00000000)  returns 0x00 (0000ms, 0666ms total)
T4D68 000:884 JLINK_WriteReg(R13 (SP), 0x20001000)  returns 0x00 (0000ms, 0666ms total)
T4D68 000:884 JLINK_WriteReg(R14, 0x20000001)  returns 0x00 (0000ms, 0666ms total)
T4D68 000:884 JLINK_WriteReg(R15 (PC), 0x20000074)  returns 0x00 (0000ms, 0666ms total)
T4D68 000:884 JLINK_WriteReg(XPSR, 0x01000000)  returns 0x00 (0000ms, 0666ms total)
T4D68 000:884 JLINK_WriteReg(MSP, 0x20001000)  returns 0x00 (0000ms, 0666ms total)
T4D68 000:884 JLINK_WriteReg(PSP, 0x20001000)  returns 0x00 (0000ms, 0666ms total)
T4D68 000:884 JLINK_WriteReg(CFBP, 0x00000000)  returns 0x00 (0000ms, 0666ms total)
T4D68 000:884 JLINK_SetBPEx(Addr = 0x20000000, Type = 0xFFFFFFF2)  returns 0x0000000A (0000ms, 0666ms total)
T4D68 000:884 JLINK_Go() (0002ms, 0668ms total)
T4D68 000:886 JLINK_IsHalted() -- CPU_ReadMem(2 bytes @ 0x20000000)  returns TRUE (0003ms, 0671ms total)
T4D68 000:889 JLINK_ReadReg(R15 (PC))  returns 0x20000000 (0000ms, 0668ms total)
T4D68 000:889 JLINK_ClrBPEx(BPHandle = 0x0000000A)  returns 0x00 (0000ms, 0668ms total)
T4D68 000:889 JLINK_ReadReg(R0)  returns 0x00000001 (0000ms, 0668ms total)
T4D68 000:889 JLINK_WriteReg(R0, 0x00004000)  returns 0x00 (0000ms, 0668ms total)
T4D68 000:889 JLINK_WriteReg(R1, 0x00001000)  returns 0x00 (0000ms, 0668ms total)
T4D68 000:889 JLINK_WriteReg(R2, 0x000000FF)  returns 0x00 (0000ms, 0668ms total)
T4D68 000:889 JLINK_WriteReg(R3, 0x00000000)  returns 0x00 (0000ms, 0668ms total)
T4D68 000:889 JLINK_WriteReg(R4, 0x00000000)  returns 0x00 (0000ms, 0668ms total)
T4D68 000:889 JLINK_WriteReg(R5, 0x00000000)  returns 0x00 (0000ms, 0668ms total)
T4D68 000:889 JLINK_WriteReg(R6, 0x00000000)  returns 0x00 (0000ms, 0668ms total)
T4D68 000:889 JLINK_WriteReg(R7, 0x00000000)  returns 0x00 (0000ms, 0668ms total)
T4D68 000:889 JLINK_WriteReg(R8, 0x00000000)  returns 0x00 (0000ms, 0668ms total)
T4D68 000:889 JLINK_WriteReg(R9, 0x20000438)  returns 0x00 (0000ms, 0668ms total)
T4D68 000:889 JLINK_WriteReg(R10, 0x00000000)  returns 0x00 (0001ms, 0669ms total)
T4D68 000:890 JLINK_WriteReg(R11, 0x00000000)  returns 0x00 (0000ms, 0669ms total)
T4D68 000:890 JLINK_WriteReg(R12, 0x00000000)  returns 0x00 (0000ms, 0669ms total)
T4D68 000:890 JLINK_WriteReg(R13 (SP), 0x20001000)  returns 0x00 (0000ms, 0669ms total)
T4D68 000:890 JLINK_WriteReg(R14, 0x20000001)  returns 0x00 (0000ms, 0669ms total)
T4D68 000:890 JLINK_WriteReg(R15 (PC), 0x200000CA)  returns 0x00 (0000ms, 0669ms total)
T4D68 000:890 JLINK_WriteReg(XPSR, 0x01000000)  returns 0x00 (0000ms, 0669ms total)
T4D68 000:890 JLINK_WriteReg(MSP, 0x20001000)  returns 0x00 (0000ms, 0669ms total)
T4D68 000:890 JLINK_WriteReg(PSP, 0x20001000)  returns 0x00 (0000ms, 0669ms total)
T4D68 000:890 JLINK_WriteReg(CFBP, 0x00000000)  returns 0x00 (0000ms, 0669ms total)
T4D68 000:890 JLINK_SetBPEx(Addr = 0x20000000, Type = 0xFFFFFFF2)  returns 0x0000000B (0000ms, 0669ms total)
T4D68 000:890 JLINK_Go() (0001ms, 0670ms total)
T4D68 000:891 JLINK_IsHalted()  returns FALSE (0000ms, 0670ms total)
T4D68 000:894 JLINK_IsHalted()  returns FALSE (0000ms, 0670ms total)
T4D68 000:895 JLINK_IsHalted()  returns FALSE (0001ms, 0671ms total)
T4D68 000:912 JLINK_IsHalted() -- CPU_ReadMem(2 bytes @ 0x20000000)  returns TRUE (0004ms, 0674ms total)
T4D68 000:916 JLINK_ReadReg(R15 (PC))  returns 0x20000000 (0000ms, 0670ms total)
T4D68 000:916 JLINK_ClrBPEx(BPHandle = 0x0000000B)  returns 0x00 (0000ms, 0670ms total)
T4D68 000:916 JLINK_ReadReg(R0)  returns 0x00000000 (0000ms, 0670ms total)
T4D68 000:916 JLINK_WriteReg(R0, 0x00005000)  returns 0x00 (0000ms, 0670ms total)
T4D68 000:916 JLINK_WriteReg(R1, 0x00001000)  returns 0x00 (0000ms, 0670ms total)
T4D68 000:916 JLINK_WriteReg(R2, 0x000000FF)  returns 0x00 (0000ms, 0670ms total)
T4D68 000:916 JLINK_WriteReg(R3, 0x00000000)  returns 0x00 (0000ms, 0670ms total)
T4D68 000:916 JLINK_WriteReg(R4, 0x00000000)  returns 0x00 (0000ms, 0670ms total)
T4D68 000:916 JLINK_WriteReg(R5, 0x00000000)  returns 0x00 (0000ms, 0670ms total)
T4D68 000:916 JLINK_WriteReg(R6, 0x00000000)  returns 0x00 (0000ms, 0670ms total)
T4D68 000:916 JLINK_WriteReg(R7, 0x00000000)  returns 0x00 (0000ms, 0670ms total)
T4D68 000:916 JLINK_WriteReg(R8, 0x00000000)  returns 0x00 (0000ms, 0670ms total)
T4D68 000:916 JLINK_WriteReg(R9, 0x20000438)  returns 0x00 (0000ms, 0670ms total)
T4D68 000:916 JLINK_WriteReg(R10, 0x00000000)  returns 0x00 (0000ms, 0670ms total)
T4D68 000:916 JLINK_WriteReg(R11, 0x00000000)  returns 0x00 (0000ms, 0670ms total)
T4D68 000:916 JLINK_WriteReg(R12, 0x00000000)  returns 0x00 (0000ms, 0670ms total)
T4D68 000:916 JLINK_WriteReg(R13 (SP), 0x20001000)  returns 0x00 (0001ms, 0671ms total)
T4D68 000:917 JLINK_WriteReg(R14, 0x20000001)  returns 0x00 (0000ms, 0671ms total)
T4D68 000:917 JLINK_WriteReg(R15 (PC), 0x20000074)  returns 0x00 (0000ms, 0671ms total)
T4D68 000:917 JLINK_WriteReg(XPSR, 0x01000000)  returns 0x00 (0000ms, 0671ms total)
T4D68 000:917 JLINK_WriteReg(MSP, 0x20001000)  returns 0x00 (0000ms, 0671ms total)
T4D68 000:917 JLINK_WriteReg(PSP, 0x20001000)  returns 0x00 (0000ms, 0671ms total)
T4D68 000:917 JLINK_WriteReg(CFBP, 0x00000000)  returns 0x00 (0000ms, 0671ms total)
T4D68 000:917 JLINK_SetBPEx(Addr = 0x20000000, Type = 0xFFFFFFF2)  returns 0x0000000C (0000ms, 0671ms total)
T4D68 000:917 JLINK_Go() (0001ms, 0672ms total)
T4D68 000:918 JLINK_IsHalted() -- CPU_ReadMem(2 bytes @ 0x20000000)  returns TRUE (0004ms, 0676ms total)
T4D68 000:922 JLINK_ReadReg(R15 (PC))  returns 0x20000000 (0000ms, 0672ms total)
T4D68 000:922 JLINK_ClrBPEx(BPHandle = 0x0000000C)  returns 0x00 (0000ms, 0672ms total)
T4D68 000:922 JLINK_ReadReg(R0)  returns 0x00000001 (0000ms, 0672ms total)
T4D68 000:922 JLINK_WriteReg(R0, 0x00005000)  returns 0x00 (0000ms, 0672ms total)
T4D68 000:922 JLINK_WriteReg(R1, 0x00001000)  returns 0x00 (0000ms, 0672ms total)
T4D68 000:922 JLINK_WriteReg(R2, 0x000000FF)  returns 0x00 (0000ms, 0672ms total)
T4D68 000:922 JLINK_WriteReg(R3, 0x00000000)  returns 0x00 (0000ms, 0672ms total)
T4D68 000:922 JLINK_WriteReg(R4, 0x00000000)  returns 0x00 (0000ms, 0672ms total)
T4D68 000:922 JLINK_WriteReg(R5, 0x00000000)  returns 0x00 (0000ms, 0672ms total)
T4D68 000:922 JLINK_WriteReg(R6, 0x00000000)  returns 0x00 (0000ms, 0672ms total)
T4D68 000:922 JLINK_WriteReg(R7, 0x00000000)  returns 0x00 (0000ms, 0672ms total)
T4D68 000:922 JLINK_WriteReg(R8, 0x00000000)  returns 0x00 (0000ms, 0672ms total)
T4D68 000:922 JLINK_WriteReg(R9, 0x20000438)  returns 0x00 (0000ms, 0672ms total)
T4D68 000:922 JLINK_WriteReg(R10, 0x00000000)  returns 0x00 (0000ms, 0672ms total)
T4D68 000:922 JLINK_WriteReg(R11, 0x00000000)  returns 0x00 (0000ms, 0672ms total)
T4D68 000:922 JLINK_WriteReg(R12, 0x00000000)  returns 0x00 (0000ms, 0672ms total)
T4D68 000:922 JLINK_WriteReg(R13 (SP), 0x20001000)  returns 0x00 (0000ms, 0672ms total)
T4D68 000:922 JLINK_WriteReg(R14, 0x20000001)  returns 0x00 (0000ms, 0672ms total)
T4D68 000:922 JLINK_WriteReg(R15 (PC), 0x200000CA)  returns 0x00 (0000ms, 0672ms total)
T4D68 000:922 JLINK_WriteReg(XPSR, 0x01000000)  returns 0x00 (0000ms, 0672ms total)
T4D68 000:922 JLINK_WriteReg(MSP, 0x20001000)  returns 0x00 (0000ms, 0672ms total)
T4D68 000:922 JLINK_WriteReg(PSP, 0x20001000)  returns 0x00 (0000ms, 0672ms total)
T4D68 000:922 JLINK_WriteReg(CFBP, 0x00000000)  returns 0x00 (0000ms, 0672ms total)
T4D68 000:922 JLINK_SetBPEx(Addr = 0x20000000, Type = 0xFFFFFFF2)  returns 0x0000000D (0000ms, 0672ms total)
T4D68 000:922 JLINK_Go() (0001ms, 0673ms total)
T4D68 000:923 JLINK_IsHalted()  returns FALSE (0001ms, 0674ms total)
T4D68 000:926 JLINK_IsHalted()  returns FALSE (0000ms, 0673ms total)
T4D68 000:927 JLINK_IsHalted()  returns FALSE (0000ms, 0673ms total)
T4D68 000:929 JLINK_IsHalted()  returns FALSE (0000ms, 0673ms total)
T4D68 000:930 JLINK_IsHalted() -- CPU_ReadMem(2 bytes @ 0x20000000)  returns TRUE (0003ms, 0676ms total)
T4D68 000:933 JLINK_ReadReg(R15 (PC))  returns 0x20000000 (0000ms, 0673ms total)
T4D68 000:933 JLINK_ClrBPEx(BPHandle = 0x0000000D)  returns 0x00 (0000ms, 0673ms total)
T4D68 000:933 JLINK_ReadReg(R0)  returns 0x00000000 (0000ms, 0673ms total)
T4D68 000:934 JLINK_WriteReg(R0, 0x00006000)  returns 0x00 (0000ms, 0673ms total)
T4D68 000:934 JLINK_WriteReg(R1, 0x00001000)  returns 0x00 (0000ms, 0673ms total)
T4D68 000:934 JLINK_WriteReg(R2, 0x000000FF)  returns 0x00 (0000ms, 0673ms total)
T4D68 000:934 JLINK_WriteReg(R3, 0x00000000)  returns 0x00 (0000ms, 0673ms total)
T4D68 000:934 JLINK_WriteReg(R4, 0x00000000)  returns 0x00 (0000ms, 0673ms total)
T4D68 000:934 JLINK_WriteReg(R5, 0x00000000)  returns 0x00 (0000ms, 0673ms total)
T4D68 000:934 JLINK_WriteReg(R6, 0x00000000)  returns 0x00 (0000ms, 0673ms total)
T4D68 000:934 JLINK_WriteReg(R7, 0x00000000)  returns 0x00 (0000ms, 0673ms total)
T4D68 000:934 JLINK_WriteReg(R8, 0x00000000)  returns 0x00 (0000ms, 0673ms total)
T4D68 000:934 JLINK_WriteReg(R9, 0x20000438)  returns 0x00 (0000ms, 0673ms total)
T4D68 000:934 JLINK_WriteReg(R10, 0x00000000)  returns 0x00 (0000ms, 0673ms total)
T4D68 000:934 JLINK_WriteReg(R11, 0x00000000)  returns 0x00 (0000ms, 0673ms total)
T4D68 000:934 JLINK_WriteReg(R12, 0x00000000)  returns 0x00 (0000ms, 0673ms total)
T4D68 000:934 JLINK_WriteReg(R13 (SP), 0x20001000)  returns 0x00 (0000ms, 0673ms total)
T4D68 000:934 JLINK_WriteReg(R14, 0x20000001)  returns 0x00 (0000ms, 0673ms total)
T4D68 000:934 JLINK_WriteReg(R15 (PC), 0x20000074)  returns 0x00 (0000ms, 0673ms total)
T4D68 000:934 JLINK_WriteReg(XPSR, 0x01000000)  returns 0x00 (0000ms, 0673ms total)
T4D68 000:934 JLINK_WriteReg(MSP, 0x20001000)  returns 0x00 (0000ms, 0673ms total)
T4D68 000:934 JLINK_WriteReg(PSP, 0x20001000)  returns 0x00 (0000ms, 0673ms total)
T4D68 000:934 JLINK_WriteReg(CFBP, 0x00000000)  returns 0x00 (0000ms, 0673ms total)
T4D68 000:934 JLINK_SetBPEx(Addr = 0x20000000, Type = 0xFFFFFFF2)  returns 0x0000000E (0000ms, 0673ms total)
T4D68 000:934 JLINK_Go() (0001ms, 0674ms total)
T4D68 000:935 JLINK_IsHalted() -- CPU_ReadMem(2 bytes @ 0x20000000)  returns TRUE (0003ms, 0677ms total)
T4D68 000:938 JLINK_ReadReg(R15 (PC))  returns 0x20000000 (0000ms, 0674ms total)
T4D68 000:938 JLINK_ClrBPEx(BPHandle = 0x0000000E)  returns 0x00 (0000ms, 0674ms total)
T4D68 000:938 JLINK_ReadReg(R0)  returns 0x00000001 (0000ms, 0674ms total)
T4D68 000:938 JLINK_WriteReg(R0, 0x00006000)  returns 0x00 (0000ms, 0674ms total)
T4D68 000:938 JLINK_WriteReg(R1, 0x00001000)  returns 0x00 (0000ms, 0674ms total)
T4D68 000:938 JLINK_WriteReg(R2, 0x000000FF)  returns 0x00 (0000ms, 0674ms total)
T4D68 000:938 JLINK_WriteReg(R3, 0x00000000)  returns 0x00 (0000ms, 0674ms total)
T4D68 000:938 JLINK_WriteReg(R4, 0x00000000)  returns 0x00 (0000ms, 0674ms total)
T4D68 000:938 JLINK_WriteReg(R5, 0x00000000)  returns 0x00 (0000ms, 0674ms total)
T4D68 000:938 JLINK_WriteReg(R6, 0x00000000)  returns 0x00 (0000ms, 0674ms total)
T4D68 000:938 JLINK_WriteReg(R7, 0x00000000)  returns 0x00 (0000ms, 0674ms total)
T4D68 000:938 JLINK_WriteReg(R8, 0x00000000)  returns 0x00 (0000ms, 0674ms total)
T4D68 000:938 JLINK_WriteReg(R9, 0x20000438)  returns 0x00 (0000ms, 0674ms total)
T4D68 000:938 JLINK_WriteReg(R10, 0x00000000)  returns 0x00 (0000ms, 0674ms total)
T4D68 000:938 JLINK_WriteReg(R11, 0x00000000)  returns 0x00 (0000ms, 0674ms total)
T4D68 000:938 JLINK_WriteReg(R12, 0x00000000)  returns 0x00 (0000ms, 0674ms total)
T4D68 000:938 JLINK_WriteReg(R13 (SP), 0x20001000)  returns 0x00 (0000ms, 0674ms total)
T4D68 000:938 JLINK_WriteReg(R14, 0x20000001)  returns 0x00 (0000ms, 0674ms total)
T4D68 000:938 JLINK_WriteReg(R15 (PC), 0x200000CA)  returns 0x00 (0000ms, 0674ms total)
T4D68 000:938 JLINK_WriteReg(XPSR, 0x01000000)  returns 0x00 (0000ms, 0674ms total)
T4D68 000:938 JLINK_WriteReg(MSP, 0x20001000)  returns 0x00 (0000ms, 0674ms total)
T4D68 000:938 JLINK_WriteReg(PSP, 0x20001000)  returns 0x00 (0000ms, 0674ms total)
T4D68 000:938 JLINK_WriteReg(CFBP, 0x00000000)  returns 0x00 (0000ms, 0674ms total)
T4D68 000:938 JLINK_SetBPEx(Addr = 0x20000000, Type = 0xFFFFFFF2)  returns 0x0000000F (0000ms, 0674ms total)
T4D68 000:938 JLINK_Go() (0002ms, 0676ms total)
T4D68 000:940 JLINK_IsHalted()  returns FALSE (0000ms, 0676ms total)
T4D68 000:941 JLINK_IsHalted()  returns FALSE (0000ms, 0676ms total)
T4D68 000:943 JLINK_IsHalted()  returns FALSE (0000ms, 0676ms total)
T4D68 000:944 JLINK_IsHalted()  returns FALSE (0000ms, 0676ms total)
T4D68 000:946 JLINK_IsHalted()  returns FALSE (0000ms, 0676ms total)
T4D68 000:947 JLINK_IsHalted() -- CPU_ReadMem(2 bytes @ 0x20000000)  returns TRUE (0003ms, 0679ms total)
T4D68 000:950 JLINK_ReadReg(R15 (PC))  returns 0x20000000 (0000ms, 0676ms total)
T4D68 000:950 JLINK_ClrBPEx(BPHandle = 0x0000000F)  returns 0x00 (0000ms, 0676ms total)
T4D68 000:950 JLINK_ReadReg(R0)  returns 0x00000000 (0000ms, 0676ms total)
T4D68 000:951 JLINK_WriteReg(R0, 0x00007000)  returns 0x00 (0000ms, 0676ms total)
T4D68 000:951 JLINK_WriteReg(R1, 0x00001000)  returns 0x00 (0000ms, 0676ms total)
T4D68 000:951 JLINK_WriteReg(R2, 0x000000FF)  returns 0x00 (0000ms, 0676ms total)
T4D68 000:951 JLINK_WriteReg(R3, 0x00000000)  returns 0x00 (0000ms, 0676ms total)
T4D68 000:951 JLINK_WriteReg(R4, 0x00000000)  returns 0x00 (0000ms, 0676ms total)
T4D68 000:951 JLINK_WriteReg(R5, 0x00000000)  returns 0x00 (0000ms, 0676ms total)
T4D68 000:951 JLINK_WriteReg(R6, 0x00000000)  returns 0x00 (0000ms, 0676ms total)
T4D68 000:951 JLINK_WriteReg(R7, 0x00000000)  returns 0x00 (0000ms, 0676ms total)
T4D68 000:951 JLINK_WriteReg(R8, 0x00000000)  returns 0x00 (0000ms, 0676ms total)
T4D68 000:951 JLINK_WriteReg(R9, 0x20000438)  returns 0x00 (0000ms, 0676ms total)
T4D68 000:951 JLINK_WriteReg(R10, 0x00000000)  returns 0x00 (0000ms, 0676ms total)
T4D68 000:951 JLINK_WriteReg(R11, 0x00000000)  returns 0x00 (0000ms, 0676ms total)
T4D68 000:951 JLINK_WriteReg(R12, 0x00000000)  returns 0x00 (0000ms, 0676ms total)
T4D68 000:951 JLINK_WriteReg(R13 (SP), 0x20001000)  returns 0x00 (0000ms, 0676ms total)
T4D68 000:951 JLINK_WriteReg(R14, 0x20000001)  returns 0x00 (0000ms, 0676ms total)
T4D68 000:951 JLINK_WriteReg(R15 (PC), 0x20000074)  returns 0x00 (0000ms, 0676ms total)
T4D68 000:951 JLINK_WriteReg(XPSR, 0x01000000)  returns 0x00 (0000ms, 0676ms total)
T4D68 000:951 JLINK_WriteReg(MSP, 0x20001000)  returns 0x00 (0000ms, 0676ms total)
T4D68 000:951 JLINK_WriteReg(PSP, 0x20001000)  returns 0x00 (0000ms, 0676ms total)
T4D68 000:951 JLINK_WriteReg(CFBP, 0x00000000)  returns 0x00 (0000ms, 0676ms total)
T4D68 000:951 JLINK_SetBPEx(Addr = 0x20000000, Type = 0xFFFFFFF2)  returns 0x00000010 (0000ms, 0676ms total)
T4D68 000:951 JLINK_Go() (0001ms, 0677ms total)
T4D68 000:952 JLINK_IsHalted() -- CPU_ReadMem(2 bytes @ 0x20000000)  returns TRUE (0003ms, 0680ms total)
T4D68 000:955 JLINK_ReadReg(R15 (PC))  returns 0x20000000 (0000ms, 0677ms total)
T4D68 000:955 JLINK_ClrBPEx(BPHandle = 0x00000010)  returns 0x00 (0000ms, 0677ms total)
T4D68 000:955 JLINK_ReadReg(R0)  returns 0x00000001 (0000ms, 0677ms total)
T4D68 000:955 JLINK_WriteReg(R0, 0x00007000)  returns 0x00 (0000ms, 0677ms total)
T4D68 000:955 JLINK_WriteReg(R1, 0x00001000)  returns 0x00 (0000ms, 0677ms total)
T4D68 000:955 JLINK_WriteReg(R2, 0x000000FF)  returns 0x00 (0000ms, 0677ms total)
T4D68 000:955 JLINK_WriteReg(R3, 0x00000000)  returns 0x00 (0000ms, 0677ms total)
T4D68 000:955 JLINK_WriteReg(R4, 0x00000000)  returns 0x00 (0000ms, 0677ms total)
T4D68 000:955 JLINK_WriteReg(R5, 0x00000000)  returns 0x00 (0000ms, 0677ms total)
T4D68 000:955 JLINK_WriteReg(R6, 0x00000000)  returns 0x00 (0000ms, 0677ms total)
T4D68 000:955 JLINK_WriteReg(R7, 0x00000000)  returns 0x00 (0000ms, 0677ms total)
T4D68 000:955 JLINK_WriteReg(R8, 0x00000000)  returns 0x00 (0000ms, 0677ms total)
T4D68 000:955 JLINK_WriteReg(R9, 0x20000438)  returns 0x00 (0000ms, 0677ms total)
T4D68 000:955 JLINK_WriteReg(R10, 0x00000000)  returns 0x00 (0000ms, 0677ms total)
T4D68 000:955 JLINK_WriteReg(R11, 0x00000000)  returns 0x00 (0000ms, 0677ms total)
T4D68 000:955 JLINK_WriteReg(R12, 0x00000000)  returns 0x00 (0000ms, 0677ms total)
T4D68 000:955 JLINK_WriteReg(R13 (SP), 0x20001000)  returns 0x00 (0000ms, 0677ms total)
T4D68 000:955 JLINK_WriteReg(R14, 0x20000001)  returns 0x00 (0000ms, 0677ms total)
T4D68 000:955 JLINK_WriteReg(R15 (PC), 0x200000CA)  returns 0x00 (0000ms, 0677ms total)
T4D68 000:955 JLINK_WriteReg(XPSR, 0x01000000)  returns 0x00 (0000ms, 0677ms total)
T4D68 000:955 JLINK_WriteReg(MSP, 0x20001000)  returns 0x00 (0000ms, 0677ms total)
T4D68 000:955 JLINK_WriteReg(PSP, 0x20001000)  returns 0x00 (0000ms, 0677ms total)
T4D68 000:955 JLINK_WriteReg(CFBP, 0x00000000)  returns 0x00 (0000ms, 0677ms total)
T4D68 000:955 JLINK_SetBPEx(Addr = 0x20000000, Type = 0xFFFFFFF2)  returns 0x00000011 (0000ms, 0677ms total)
T4D68 000:955 JLINK_Go() (0002ms, 0679ms total)
T4D68 000:957 JLINK_IsHalted()  returns FALSE (0000ms, 0679ms total)
T4D68 000:958 JLINK_IsHalted()  returns FALSE (0000ms, 0679ms total)
T4D68 000:960 JLINK_IsHalted()  returns FALSE (0000ms, 0679ms total)
T4D68 000:961 JLINK_IsHalted()  returns FALSE (0000ms, 0679ms total)
T4D68 000:963 JLINK_IsHalted()  returns FALSE (0000ms, 0679ms total)
